
T2120 000:367 SEGGER J-Link V5.12g Log File (0001ms, 0322ms total)
T2120 000:367 DLL Compiled: May 27 2016 16:57:47 (0001ms, 0322ms total)
T2120 000:367 Logging started @ 2017-05-22 00:19 (0001ms, 0322ms total)
T2120 000:368 JLINK_SetWarnOutHandler(...) (0000ms, 0322ms total)
T2120 000:368 JLINK_OpenEx(...)
Firmware: J-Link V9 compiled Apr 22 2016 11:47:06
Hardware: V9.20
Feature(s): GDB, RDI, FlashBP, FlashDL, JFlash  returns O.K. (0305ms, 0627ms total)
T2120 000:673 JLINK_SetErrorOutHandler(...) (0000ms, 0627ms total)
T2120 000:673 JLINK_ExecCommand("ProjectFile = "C:\embedd\stm32f4\09-LiteOS_F407\project\STM32F407-KEIL\prj\JLinkSettings.ini"", ...)  returns 0x00 (0001ms, 0628ms total)
T2120 000:679 JLINK_ExecCommand("Device = STM32F407ZGTx", ...)Device "STM32F407ZG" selected.  returns 0x00 (0007ms, 0636ms total)
T2120 000:687 JLINK_ExecCommand("DisableConnectionTimeout", ...)  returns 0x01 (0000ms, 0636ms total)
T2120 000:687 JLINK_GetHardwareVersion()  returns 0x16760 (0000ms, 0636ms total)
T2120 000:687 JLINK_GetDLLVersion()  returns 51207 (0000ms, 0636ms total)
T2120 000:687 JLINK_GetFirmwareString(...) (0000ms, 0636ms total)
T2120 000:706 JLINK_GetDLLVersion()  returns 51207 (0000ms, 0636ms total)
T2120 000:706 JLINK_GetCompileDateTime() (0000ms, 0636ms total)
T2120 000:709 JLINK_GetFirmwareString(...) (0000ms, 0636ms total)
T2120 000:712 JLINK_GetHardwareVersion()  returns 0x16760 (0000ms, 0636ms total)
T2120 000:724 JLINK_TIF_Select(JLINKARM_TIF_SWD)  returns 0x00 (0010ms, 0646ms total)
T2120 000:734 JLINK_SetSpeed(5000) (0003ms, 0649ms total)
T2120 000:737 JLINK_GetId() >0x108 TIF>Found SWD-DP with ID 0x2BA01477 >0x0D TIF> >0x28 TIF> >0x0D TIF> >0x28 TIF> >0x0D TIF> >0x28 TIF> >0x0D TIF> >0x28 TIF> >0x0D TIF> >0x21 TIF> >0x0D TIF> >0x28 TIF> >0x0D TIF> >0x28 TIF> >0x0D TIF> >0x28 TIF> >0x0D TIF> >0x21 TIF> >0x0D TIF> >0x21 TIF> >0x0D TIF> >0x28 TIF> >0x0D TIF> >0x21 TIF> >0x0D TIF> >0x21 TIF> >0x0D TIF> >0x28 TIF> >0x0D TIF> >0x21 TIF> >0x0D TIF> >0x21 TIF> >0x0D TIF> >0x28 TIF> >0x0D TIF> >0x21 TIF> >0x0D TIF> >0x21 TIF> >0x0D TIF>
 >0x28 TIF> >0x0D TIF> >0x21 TIF> >0x0D TIF> >0x21 TIF> >0x0D TIF> >0x28 TIF> >0x0D TIF> >0x21 TIF> >0x0D TIF> >0x21 TIF> >0x108 TIF>Found SWD-DP with ID 0x2BA01477 >0x0D TIF> >0x28 TIF> >0x0D TIF> >0x28 TIF> >0x0D TIF> >0x28 TIF> >0x0D TIF> >0x28 TIF> >0x0D TIF> >0x21 TIF> >0x0D TIF> >0x28 TIF> >0x0D TIF> >0x28 TIF> >0x0D TIF> >0x21 TIF> >0x0D TIF> >0x21 TIF> >0x0D TIF> >0x21 TIF> >0x0D TIF> >0x28 TIF> >0x0D TIF> >0x28 TIF> >0x0D TIF> >0x28 TIF> >0x0D TIF> >0x21 TIF> >0x0D TIF> >0x21 TIF> >0x0D TIF>
 >0x28 TIF> >0x0D TIF> >0x21 TIF> >0x0D TIF> >0x21 TIF>Found Cortex-M4 r0p1, Little endian. -- CPU_ReadMem(4 bytes @ 0xE000EDF0) -- CPU_ReadMem(4 bytes @ 0xE0002000)FPUnit: 6 code (BP) slots and 2 literal slots -- CPU_ReadMem(4 bytes @ 0xE000EDFC) -- CPU_ReadMem(4 bytes @ 0xE0001000) -- CPU_WriteMem(4 bytes @ 0xE0001000) -- CPU_ReadMem(4 bytes @ 0xE000ED88) -- CPU_WriteMem(4 bytes @ 0xE000ED88) -- CPU_ReadMem(4 bytes @ 0xE000ED88) -- CPU_WriteMem(4 bytes @ 0xE000ED88)CoreSight components:
ROMTbl 0 @ E00FF000 -- CPU_ReadMem(16 bytes @ 0xE00FF000) -- CPU_ReadMem(16 bytes @ 0xE000EFF0) -- CPU_ReadMem(16 bytes @ 0xE000EFE0)ROMTbl 0 [0]: FFF0F000, CID: B105E00D, PID: 000BB00C SCS -- CPU_ReadMem(16 bytes @ 0xE0001FF0) -- CPU_ReadMem(16 bytes @ 0xE0001FE0)ROMTbl 0 [1]: FFF02000, CID: B105E00D, PID: 003BB002 DWT -- CPU_ReadMem(16 bytes @ 0xE0002FF0) -- CPU_ReadMem(16 bytes @ 0xE0002FE0)ROMTbl 0 [2]: FFF03000, CID: B105E00D, PID: 002BB003 FPB -- CPU_ReadMem(16 bytes @ 0xE0000FF0)
 -- CPU_ReadMem(16 bytes @ 0xE0000FE0)ROMTbl 0 [3]: FFF01000, CID: B105E00D, PID: 003BB001 ITM -- CPU_ReadMem(16 bytes @ 0xE00FF010) -- CPU_ReadMem(16 bytes @ 0xE0040FF0) -- CPU_ReadMem(16 bytes @ 0xE0040FE0)ROMTbl 0 [4]: FFF41000, CID: B105900D, PID: 000BB9A1 TPIU -- CPU_ReadMem(16 bytes @ 0xE0041FF0) -- CPU_ReadMem(16 bytes @ 0xE0041FE0)ROMTbl 0 [5]: FFF42000, CID: B105900D, PID: 000BB925 ETM >0x0D TIF> >0x21 TIF>  returns 0x2BA01477 (0422ms, 1071ms total)
T2120 001:159 JLINK_GetDLLVersion()  returns 51207 (0000ms, 1071ms total)
T2120 001:159 JLINK_CORE_GetFound()  returns 0xE0000FF (0000ms, 1071ms total)
T2120 001:159 JLINK_GetDebugInfo(0x100) -- Value=0xE00FF000  returns 0x00 (0000ms, 1071ms total)
T2120 001:163 JLINK_GetDebugInfo(0x100) -- Value=0xE00FF000  returns 0x00 (0000ms, 1071ms total)
T2120 001:163 JLINK_GetDebugInfo(0x101) -- Value=0xE0041000  returns 0x00 (0000ms, 1071ms total)
T2120 001:163 JLINK_GetDebugInfo(0x102) -- Value=0x00000000  returns 0x00 (0000ms, 1071ms total)
T2120 001:163 JLINK_GetDebugInfo(0x103) -- Value=0xE0040000  returns 0x00 (0000ms, 1071ms total)
T2120 001:163 JLINK_GetDebugInfo(0x104) -- Value=0xE0000000  returns 0x00 (0000ms, 1071ms total)
T2120 001:163 JLINK_GetDebugInfo(0x105) -- Value=0xE0001000  returns 0x00 (0000ms, 1071ms total)
T2120 001:163 JLINK_GetDebugInfo(0x106) -- Value=0xE0002000  returns 0x00 (0000ms, 1071ms total)
T2120 001:163 JLINK_GetDebugInfo(0x107) -- Value=0xE000E000  returns 0x00 (0000ms, 1071ms total)
T2120 001:163 JLINK_GetDebugInfo(0x10C) -- Value=0xE000EDF0  returns 0x00 (0000ms, 1071ms total)
T2120 001:163 JLINK_ReadMemU32(0xE000EF40, 0x0001 Items, ...) -- CPU is running -- CPU_ReadMem(4 bytes @ 0xE000EF40) - Data: 21 00 11 10  returns 0x01 (0003ms, 1074ms total)
T2120 001:166 JLINK_ReadMemU32(0xE000EF44, 0x0001 Items, ...) -- CPU is running -- CPU_ReadMem(4 bytes @ 0xE000EF44) - Data: 11 00 00 11  returns 0x01 (0003ms, 1077ms total)
T2120 001:169 JLINK_ReadMemU32(0xE000ED00, 0x0001 Items, ...) -- CPU is running -- CPU_ReadMem(4 bytes @ 0xE000ED00) - Data: 41 C2 0F 41  returns 0x01 (0004ms, 1081ms total)
T2120 001:173 JLINK_SetResetType(JLINKARM_RESET_TYPE_NORMAL)  returns JLINKARM_RESET_TYPE_NORMAL (0000ms, 1081ms total)
T2120 001:173 JLINK_Reset() -- CPU is running -- CPU_WriteMem(4 bytes @ 0xE000EDF0) -- CPU is running -- CPU_WriteMem(4 bytes @ 0xE000EDFC) >0x35 TIF> -- CPU is running -- CPU_WriteMem(4 bytes @ 0xE000ED0C) -- CPU is running -- CPU_ReadMem(4 bytes @ 0xE000EDF0) -- CPU is running -- CPU_ReadMem(4 bytes @ 0xE000EDF0) -- CPU is running -- CPU_WriteMem(4 bytes @ 0xE000EDF0) -- CPU is running -- CPU_WriteMem(4 bytes @ 0xE000EDFC) -- CPU is running -- CPU_ReadMem(4 bytes @ 0xE000EDF0)
 -- CPU_WriteMem(4 bytes @ 0xE0002000) -- CPU_ReadMem(4 bytes @ 0xE000EDFC) -- CPU_ReadMem(4 bytes @ 0xE0001000) (0056ms, 1137ms total)
T2120 001:229 JLINK_Halt()  returns 0x00 (0000ms, 1137ms total)
T2120 001:229 JLINK_IsHalted()  returns TRUE (0000ms, 1137ms total)
T2120 001:229 JLINK_ReadMemU32(0xE000EDF0, 0x0001 Items, ...) -- CPU_ReadMem(4 bytes @ 0xE000EDF0) - Data: 03 00 03 00  returns 0x01 (0004ms, 1141ms total)
T2120 001:233 JLINK_WriteU32(0xE000EDF0, 0xA05F0003) -- CPU_WriteMem(4 bytes @ 0xE000EDF0)  returns 0x00 (0004ms, 1145ms total)
T2120 001:237 JLINK_WriteU32(0xE000EDFC, 0x01000000) -- CPU_WriteMem(4 bytes @ 0xE000EDFC)  returns 0x00 (0004ms, 1149ms total)
T2120 001:255 JLINK_GetHWStatus(...)  returns 0x00 (0001ms, 1150ms total)
T2120 001:269 JLINK_GetNumBPUnits(Type = 0xFFFFFF00)  returns 0x06 (0000ms, 1150ms total)
T2120 001:269 JLINK_GetNumBPUnits(Type = 0xF0)  returns 0x2000 (0000ms, 1150ms total)
T2120 001:269 JLINK_GetNumWPUnits()  returns 0x04 (0000ms, 1150ms total)
T2120 001:281 JLINK_GetSpeed()  returns 0xFA0 (0000ms, 1150ms total)
T2120 001:287 JLINK_ReadMemU32(0xE000E004, 0x0001 Items, ...) -- CPU_ReadMem(4 bytes @ 0xE000E004) - Data: 02 00 00 00  returns 0x01 (0002ms, 1152ms total)
T2120 001:289 JLINK_ReadMemU32(0xE000E004, 0x0001 Items, ...) -- CPU_ReadMem(4 bytes @ 0xE000E004) - Data: 02 00 00 00  returns 0x01 (0004ms, 1156ms total)
T2120 001:293 JLINK_WriteMem(0xE0001000, 0x001C Bytes, ...) - Data: 01 00 00 00 00 00 00 00 00 00 00 00 00 00 00 00 ... -- CPU_WriteMem(28 bytes @ 0xE0001000)  returns 0x1C (0005ms, 1161ms total)
T2120 001:298 JLINK_ReadMem (0xE0001000, 0x001C Bytes, ...) -- CPU_ReadMem(28 bytes @ 0xE0001000) - Data: 01 00 00 40 00 00 00 00 00 00 00 00 00 00 00 00 ...  returns 0x00 (0005ms, 1166ms total)
T2120 001:303 JLINK_Halt()  returns 0x00 (0000ms, 1166ms total)
T2120 001:303 JLINK_IsHalted()  returns TRUE (0000ms, 1166ms total)
T2120 001:306 JLINK_WriteMem(0x20000000, 0x0180 Bytes, ...) - Data: 00 BE 0A E0 0D 78 2D 06 68 40 08 24 40 00 00 D3 ... -- CPU_WriteMem(384 bytes @ 0x20000000)  returns 0x180 (0003ms, 1169ms total)
T2120 001:309 JLINK_WriteReg(R0, 0x08000000)  returns 0x00 (0000ms, 1169ms total)
T2120 001:309 JLINK_WriteReg(R1, 0x00B71B00)  returns 0x00 (0000ms, 1169ms total)
T2120 001:309 JLINK_WriteReg(R2, 0x00000001)  returns 0x00 (0000ms, 1169ms total)
T2120 001:309 JLINK_WriteReg(R3, 0x00000000)  returns 0x00 (0000ms, 1169ms total)
T2120 001:309 JLINK_WriteReg(R4, 0x00000000)  returns 0x00 (0000ms, 1169ms total)
T2120 001:309 JLINK_WriteReg(R5, 0x00000000)  returns 0x00 (0000ms, 1169ms total)
T2120 001:309 JLINK_WriteReg(R6, 0x00000000)  returns 0x00 (0000ms, 1169ms total)
T2120 001:309 JLINK_WriteReg(R7, 0x00000000)  returns 0x00 (0000ms, 1169ms total)
T2120 001:309 JLINK_WriteReg(R8, 0x00000000)  returns 0x00 (0000ms, 1169ms total)
T2120 001:309 JLINK_WriteReg(R9, 0x2000017C)  returns 0x00 (0000ms, 1169ms total)
T2120 001:309 JLINK_WriteReg(R10, 0x00000000)  returns 0x00 (0000ms, 1169ms total)
T2120 001:309 JLINK_WriteReg(R11, 0x00000000)  returns 0x00 (0000ms, 1169ms total)
T2120 001:309 JLINK_WriteReg(R12, 0x00000000)  returns 0x00 (0000ms, 1169ms total)
T2120 001:309 JLINK_WriteReg(R13 (SP), 0x20001000)  returns 0x00 (0000ms, 1169ms total)
T2120 001:309 JLINK_WriteReg(R14, 0x20000001)  returns 0x00 (0000ms, 1169ms total)
T2120 001:309 JLINK_WriteReg(R15 (PC), 0x20000054)  returns 0x00 (0000ms, 1169ms total)
T2120 001:309 JLINK_WriteReg(XPSR, 0x01000000)  returns 0x00 (0000ms, 1169ms total)
T2120 001:309 JLINK_WriteReg(MSP, 0x20001000)  returns 0x00 (0000ms, 1169ms total)
T2120 001:310 JLINK_WriteReg(PSP, 0x20001000)  returns 0x00 (0000ms, 1169ms total)
T2120 001:310 JLINK_WriteReg(CFBP, 0x00000000)  returns 0x00 (0000ms, 1169ms total)
T2120 001:310 JLINK_SetBPEx(Addr = 0x20000000, Type = 0xFFFFFFF2) -- CPU_ReadMem(2 bytes @ 0x20000000)  returns 0x00000001 (0002ms, 1171ms total)
T2120 001:312 JLINK_Go() -- CPU_WriteMem(2 bytes @ 0x20000000) -- CPU_ReadMem(4 bytes @ 0xE0001000) -- CPU_WriteMem(4 bytes @ 0xE0002008) -- CPU_WriteMem(4 bytes @ 0xE000200C) -- CPU_WriteMem(4 bytes @ 0xE0002010) -- CPU_WriteMem(4 bytes @ 0xE0002014) -- CPU_WriteMem(4 bytes @ 0xE0002018) -- CPU_WriteMem(4 bytes @ 0xE000201C) -- CPU_WriteMem(4 bytes @ 0xE0001004) (0020ms, 1191ms total)
T2120 001:332 JLINK_IsHalted() -- CPU_ReadMem(2 bytes @ 0x20000000)  returns TRUE (0011ms, 1202ms total)
T2120 001:343 JLINK_ReadReg(R15 (PC))  returns 0x20000000 (0000ms, 1191ms total)
T2120 001:343 JLINK_ClrBPEx(BPHandle = 0x00000001)  returns 0x00 (0000ms, 1191ms total)
T2120 001:343 JLINK_ReadReg(R0)  returns 0x00000000 (0000ms, 1191ms total)
T2120 001:343 JLINK_WriteReg(R0, 0x08000000)  returns 0x00 (0000ms, 1191ms total)
T2120 001:343 JLINK_WriteReg(R1, 0x00004000)  returns 0x00 (0000ms, 1191ms total)
T2120 001:343 JLINK_WriteReg(R2, 0x000000FF)  returns 0x00 (0000ms, 1191ms total)
T2120 001:343 JLINK_WriteReg(R3, 0x00000000)  returns 0x00 (0000ms, 1191ms total)
T2120 001:343 JLINK_WriteReg(R4, 0x00000000)  returns 0x00 (0000ms, 1191ms total)
T2120 001:343 JLINK_WriteReg(R5, 0x00000000)  returns 0x00 (0000ms, 1191ms total)
T2120 001:343 JLINK_WriteReg(R6, 0x00000000)  returns 0x00 (0000ms, 1191ms total)
T2120 001:343 JLINK_WriteReg(R7, 0x00000000)  returns 0x00 (0000ms, 1191ms total)
T2120 001:343 JLINK_WriteReg(R8, 0x00000000)  returns 0x00 (0000ms, 1191ms total)
T2120 001:343 JLINK_WriteReg(R9, 0x2000017C)  returns 0x00 (0000ms, 1191ms total)
T2120 001:343 JLINK_WriteReg(R10, 0x00000000)  returns 0x00 (0000ms, 1191ms total)
T2120 001:343 JLINK_WriteReg(R11, 0x00000000)  returns 0x00 (0000ms, 1191ms total)
T2120 001:343 JLINK_WriteReg(R12, 0x00000000)  returns 0x00 (0000ms, 1191ms total)
T2120 001:343 JLINK_WriteReg(R13 (SP), 0x20001000)  returns 0x00 (0001ms, 1192ms total)
T2120 001:344 JLINK_WriteReg(R14, 0x20000001)  returns 0x00 (0000ms, 1192ms total)
T2120 001:344 JLINK_WriteReg(R15 (PC), 0x20000020)  returns 0x00 (0000ms, 1192ms total)
T2120 001:344 JLINK_WriteReg(XPSR, 0x01000000)  returns 0x00 (0000ms, 1192ms total)
T2120 001:344 JLINK_WriteReg(MSP, 0x20001000)  returns 0x00 (0000ms, 1192ms total)
T2120 001:344 JLINK_WriteReg(PSP, 0x20001000)  returns 0x00 (0000ms, 1192ms total)
T2120 001:344 JLINK_WriteReg(CFBP, 0x00000000)  returns 0x00 (0000ms, 1192ms total)
T2120 001:344 JLINK_SetBPEx(Addr = 0x20000000, Type = 0xFFFFFFF2)  returns 0x00000002 (0000ms, 1192ms total)
T2120 001:344 JLINK_Go() -- CPU_ReadMem(4 bytes @ 0xE0001000) (0009ms, 1201ms total)
T2120 001:353 JLINK_IsHalted() -- CPU_ReadMem(2 bytes @ 0x20000000)  returns TRUE (0009ms, 1210ms total)
T2120 001:362 JLINK_ReadReg(R15 (PC))  returns 0x20000000 (0000ms, 1201ms total)
T2120 001:362 JLINK_ClrBPEx(BPHandle = 0x00000002)  returns 0x00 (0000ms, 1201ms total)
T2120 001:362 JLINK_ReadReg(R0)  returns 0x00000001 (0000ms, 1201ms total)
T2120 001:362 JLINK_WriteReg(R0, 0x08000000)  returns 0x00 (0000ms, 1201ms total)
T2120 001:362 JLINK_WriteReg(R1, 0x00004000)  returns 0x00 (0000ms, 1201ms total)
T2120 001:362 JLINK_WriteReg(R2, 0x000000FF)  returns 0x00 (0000ms, 1201ms total)
T2120 001:362 JLINK_WriteReg(R3, 0x00000000)  returns 0x00 (0000ms, 1201ms total)
T2120 001:362 JLINK_WriteReg(R4, 0x00000000)  returns 0x00 (0000ms, 1201ms total)
T2120 001:362 JLINK_WriteReg(R5, 0x00000000)  returns 0x00 (0000ms, 1201ms total)
T2120 001:362 JLINK_WriteReg(R6, 0x00000000)  returns 0x00 (0000ms, 1201ms total)
T2120 001:362 JLINK_WriteReg(R7, 0x00000000)  returns 0x00 (0000ms, 1201ms total)
T2120 001:362 JLINK_WriteReg(R8, 0x00000000)  returns 0x00 (0000ms, 1201ms total)
T2120 001:362 JLINK_WriteReg(R9, 0x2000017C)  returns 0x00 (0000ms, 1201ms total)
T2120 001:362 JLINK_WriteReg(R10, 0x00000000)  returns 0x00 (0000ms, 1201ms total)
T2120 001:362 JLINK_WriteReg(R11, 0x00000000)  returns 0x00 (0000ms, 1201ms total)
T2120 001:362 JLINK_WriteReg(R12, 0x00000000)  returns 0x00 (0000ms, 1201ms total)
T2120 001:362 JLINK_WriteReg(R13 (SP), 0x20001000)  returns 0x00 (0000ms, 1201ms total)
T2120 001:362 JLINK_WriteReg(R14, 0x20000001)  returns 0x00 (0000ms, 1201ms total)
T2120 001:362 JLINK_WriteReg(R15 (PC), 0x200000BC)  returns 0x00 (0000ms, 1201ms total)
T2120 001:362 JLINK_WriteReg(XPSR, 0x01000000)  returns 0x00 (0000ms, 1201ms total)
T2120 001:362 JLINK_WriteReg(MSP, 0x20001000)  returns 0x00 (0000ms, 1201ms total)
T2120 001:362 JLINK_WriteReg(PSP, 0x20001000)  returns 0x00 (0000ms, 1201ms total)
T2120 001:362 JLINK_WriteReg(CFBP, 0x00000000)  returns 0x00 (0000ms, 1201ms total)
T2120 001:362 JLINK_SetBPEx(Addr = 0x20000000, Type = 0xFFFFFFF2)  returns 0x00000003 (0000ms, 1201ms total)
T2120 001:362 JLINK_Go() -- CPU_ReadMem(4 bytes @ 0xE0001000) (0010ms, 1211ms total)
T2120 001:372 JLINK_IsHalted()  returns FALSE (0004ms, 1215ms total)
T2120 001:457 JLINK_IsHalted()  returns FALSE (0002ms, 1213ms total)
T2120 001:462 JLINK_IsHalted()  returns FALSE (0003ms, 1214ms total)
T2120 001:467 JLINK_IsHalted()  returns FALSE (0003ms, 1214ms total)
T2120 001:472 JLINK_IsHalted()  returns FALSE (0002ms, 1213ms total)
T2120 001:475 JLINK_IsHalted()  returns FALSE (0004ms, 1215ms total)
T2120 001:481 JLINK_IsHalted()  returns FALSE (0004ms, 1215ms total)
T2120 001:487 JLINK_IsHalted()  returns FALSE (0003ms, 1214ms total)
T2120 001:492 JLINK_IsHalted()  returns FALSE (0003ms, 1214ms total)
T2120 001:497 JLINK_IsHalted()  returns FALSE (0004ms, 1215ms total)
T2120 001:502 JLINK_IsHalted()  returns FALSE (0003ms, 1214ms total)
T2120 001:507 JLINK_IsHalted()  returns FALSE (0003ms, 1214ms total)
T2120 001:513 JLINK_IsHalted()  returns FALSE (0003ms, 1214ms total)
T2120 001:518 JLINK_IsHalted()  returns FALSE (0003ms, 1214ms total)
T2120 001:523 JLINK_IsHalted()  returns FALSE (0003ms, 1214ms total)
T2120 001:528 JLINK_IsHalted()  returns FALSE (0004ms, 1215ms total)
T2120 001:534 JLINK_IsHalted()  returns FALSE (0003ms, 1214ms total)
T2120 001:539 JLINK_IsHalted()  returns FALSE (0002ms, 1213ms total)
T2120 001:550 JLINK_IsHalted()  returns FALSE (0003ms, 1214ms total)
T2120 001:555 JLINK_IsHalted()  returns FALSE (0003ms, 1214ms total)
T2120 001:560 JLINK_IsHalted()  returns FALSE (0004ms, 1215ms total)
T2120 001:566 JLINK_IsHalted()  returns FALSE (0002ms, 1213ms total)
T2120 001:570 JLINK_IsHalted()  returns FALSE (0002ms, 1213ms total)
T2120 001:574 JLINK_IsHalted()  returns FALSE (0004ms, 1215ms total)
T2120 001:580 JLINK_IsHalted()  returns FALSE (0001ms, 1212ms total)
T2120 001:582 JLINK_IsHalted()  returns FALSE (0003ms, 1214ms total)
T2120 001:587 JLINK_IsHalted()  returns FALSE (0003ms, 1214ms total)
T2120 001:592 JLINK_IsHalted()  returns FALSE (0004ms, 1215ms total)
T2120 001:598 JLINK_IsHalted()  returns FALSE (0003ms, 1214ms total)
T2120 001:603 JLINK_IsHalted()  returns FALSE (0003ms, 1214ms total)
T2120 001:608 JLINK_IsHalted()  returns FALSE (0003ms, 1214ms total)
T2120 001:612 JLINK_IsHalted()  returns FALSE (0003ms, 1214ms total)
T2120 001:621 JLINK_IsHalted()  returns FALSE (0003ms, 1214ms total)
T2120 001:626 JLINK_IsHalted()  returns FALSE (0003ms, 1214ms total)
T2120 001:634 JLINK_IsHalted()  returns FALSE (0003ms, 1214ms total)
T2120 001:640 JLINK_IsHalted()  returns FALSE (0001ms, 1212ms total)
T2120 001:642 JLINK_IsHalted()  returns FALSE (0003ms, 1214ms total)
T2120 001:646 JLINK_IsHalted()  returns FALSE (0002ms, 1213ms total)
T2120 001:661 JLINK_IsHalted()  returns FALSE (0003ms, 1214ms total)
T2120 001:665 JLINK_IsHalted()  returns FALSE (0004ms, 1215ms total)
T2120 001:671 JLINK_IsHalted()  returns FALSE (0004ms, 1215ms total)
T2120 001:679 JLINK_IsHalted()  returns FALSE (0002ms, 1213ms total)
T2120 001:682 JLINK_IsHalted()  returns FALSE (0003ms, 1216ms total)
T2120 001:686 JLINK_IsHalted()  returns FALSE (0003ms, 1216ms total)
T2120 001:690 JLINK_IsHalted()  returns FALSE (0003ms, 1216ms total)
T2120 001:695 JLINK_IsHalted()  returns FALSE (0002ms, 1215ms total)
T2120 001:699 JLINK_IsHalted()  returns FALSE (0002ms, 1215ms total)
T2120 001:702 JLINK_IsHalted()  returns FALSE (0003ms, 1216ms total)
T2120 001:707 JLINK_IsHalted()  returns FALSE (0004ms, 1217ms total)
T2120 001:713 JLINK_IsHalted()  returns FALSE (0003ms, 1216ms total)
T2120 001:718 JLINK_IsHalted()  returns FALSE (0003ms, 1216ms total)
T2120 001:723 JLINK_IsHalted()  returns FALSE (0003ms, 1216ms total)
T2120 001:728 JLINK_IsHalted()  returns FALSE (0003ms, 1216ms total)
T2120 001:733 JLINK_IsHalted() -- CPU_ReadMem(2 bytes @ 0x20000000)  returns TRUE (0010ms, 1223ms total)
T2120 001:743 JLINK_ReadReg(R15 (PC))  returns 0x20000000 (0000ms, 1213ms total)
T2120 001:743 JLINK_ClrBPEx(BPHandle = 0x00000003)  returns 0x00 (0000ms, 1213ms total)
T2120 001:743 JLINK_ReadReg(R0)  returns 0x00000000 (0000ms, 1213ms total)
T2120 001:744 JLINK_WriteReg(R0, 0x08004000)  returns 0x00 (0000ms, 1213ms total)
T2120 001:744 JLINK_WriteReg(R1, 0x00004000)  returns 0x00 (0000ms, 1213ms total)
T2120 001:744 JLINK_WriteReg(R2, 0x000000FF)  returns 0x00 (0000ms, 1213ms total)
T2120 001:744 JLINK_WriteReg(R3, 0x00000000)  returns 0x00 (0000ms, 1213ms total)
T2120 001:744 JLINK_WriteReg(R4, 0x00000000)  returns 0x00 (0000ms, 1213ms total)
T2120 001:744 JLINK_WriteReg(R5, 0x00000000)  returns 0x00 (0000ms, 1213ms total)
T2120 001:744 JLINK_WriteReg(R6, 0x00000000)  returns 0x00 (0000ms, 1213ms total)
T2120 001:744 JLINK_WriteReg(R7, 0x00000000)  returns 0x00 (0000ms, 1213ms total)
T2120 001:744 JLINK_WriteReg(R8, 0x00000000)  returns 0x00 (0000ms, 1213ms total)
T2120 001:744 JLINK_WriteReg(R9, 0x2000017C)  returns 0x00 (0000ms, 1213ms total)
T2120 001:744 JLINK_WriteReg(R10, 0x00000000)  returns 0x00 (0000ms, 1213ms total)
T2120 001:744 JLINK_WriteReg(R11, 0x00000000)  returns 0x00 (0000ms, 1213ms total)
T2120 001:744 JLINK_WriteReg(R12, 0x00000000)  returns 0x00 (0000ms, 1213ms total)
T2120 001:744 JLINK_WriteReg(R13 (SP), 0x20001000)  returns 0x00 (0000ms, 1213ms total)
T2120 001:744 JLINK_WriteReg(R14, 0x20000001)  returns 0x00 (0000ms, 1213ms total)
T2120 001:744 JLINK_WriteReg(R15 (PC), 0x20000020)  returns 0x00 (0000ms, 1213ms total)
T2120 001:744 JLINK_WriteReg(XPSR, 0x01000000)  returns 0x00 (0000ms, 1213ms total)
T2120 001:744 JLINK_WriteReg(MSP, 0x20001000)  returns 0x00 (0000ms, 1213ms total)
T2120 001:744 JLINK_WriteReg(PSP, 0x20001000)  returns 0x00 (0000ms, 1213ms total)
T2120 001:744 JLINK_WriteReg(CFBP, 0x00000000)  returns 0x00 (0000ms, 1213ms total)
T2120 001:744 JLINK_SetBPEx(Addr = 0x20000000, Type = 0xFFFFFFF2)  returns 0x00000004 (0000ms, 1213ms total)
T2120 001:744 JLINK_Go() -- CPU_ReadMem(4 bytes @ 0xE0001000) (0008ms, 1221ms total)
T2120 001:752 JLINK_IsHalted() -- CPU_ReadMem(2 bytes @ 0x20000000)  returns TRUE (0011ms, 1232ms total)
T2120 001:763 JLINK_ReadReg(R15 (PC))  returns 0x20000000 (0000ms, 1221ms total)
T2120 001:763 JLINK_ClrBPEx(BPHandle = 0x00000004)  returns 0x00 (0000ms, 1221ms total)
T2120 001:763 JLINK_ReadReg(R0)  returns 0x00000001 (0000ms, 1221ms total)
T2120 001:763 JLINK_WriteReg(R0, 0x08004000)  returns 0x00 (0000ms, 1221ms total)
T2120 001:763 JLINK_WriteReg(R1, 0x00004000)  returns 0x00 (0000ms, 1221ms total)
T2120 001:763 JLINK_WriteReg(R2, 0x000000FF)  returns 0x00 (0000ms, 1221ms total)
T2120 001:763 JLINK_WriteReg(R3, 0x00000000)  returns 0x00 (0000ms, 1221ms total)
T2120 001:763 JLINK_WriteReg(R4, 0x00000000)  returns 0x00 (0000ms, 1221ms total)
T2120 001:763 JLINK_WriteReg(R5, 0x00000000)  returns 0x00 (0000ms, 1221ms total)
T2120 001:763 JLINK_WriteReg(R6, 0x00000000)  returns 0x00 (0000ms, 1221ms total)
T2120 001:763 JLINK_WriteReg(R7, 0x00000000)  returns 0x00 (0000ms, 1221ms total)
T2120 001:763 JLINK_WriteReg(R8, 0x00000000)  returns 0x00 (0000ms, 1221ms total)
T2120 001:763 JLINK_WriteReg(R9, 0x2000017C)  returns 0x00 (0000ms, 1221ms total)
T2120 001:763 JLINK_WriteReg(R10, 0x00000000)  returns 0x00 (0000ms, 1221ms total)
T2120 001:763 JLINK_WriteReg(R11, 0x00000000)  returns 0x00 (0000ms, 1221ms total)
T2120 001:763 JLINK_WriteReg(R12, 0x00000000)  returns 0x00 (0000ms, 1221ms total)
T2120 001:763 JLINK_WriteReg(R13 (SP), 0x20001000)  returns 0x00 (0000ms, 1221ms total)
T2120 001:763 JLINK_WriteReg(R14, 0x20000001)  returns 0x00 (0000ms, 1221ms total)
T2120 001:763 JLINK_WriteReg(R15 (PC), 0x200000BC)  returns 0x00 (0000ms, 1221ms total)
T2120 001:763 JLINK_WriteReg(XPSR, 0x01000000)  returns 0x00 (0000ms, 1221ms total)
T2120 001:763 JLINK_WriteReg(MSP, 0x20001000)  returns 0x00 (0000ms, 1221ms total)
T2120 001:763 JLINK_WriteReg(PSP, 0x20001000)  returns 0x00 (0000ms, 1221ms total)
T2120 001:763 JLINK_WriteReg(CFBP, 0x00000000)  returns 0x00 (0000ms, 1221ms total)
T2120 001:763 JLINK_SetBPEx(Addr = 0x20000000, Type = 0xFFFFFFF2)  returns 0x00000005 (0000ms, 1221ms total)
T2120 001:763 JLINK_Go() -- CPU_ReadMem(4 bytes @ 0xE0001000) (0010ms, 1231ms total)
T2120 001:773 JLINK_IsHalted()  returns FALSE (0003ms, 1234ms total)
T2120 001:787 JLINK_IsHalted()  returns FALSE (0003ms, 1234ms total)
T2120 001:792 JLINK_IsHalted()  returns FALSE (0002ms, 1233ms total)
T2120 001:796 JLINK_IsHalted()  returns FALSE (0003ms, 1234ms total)
T2120 001:800 JLINK_IsHalted()  returns FALSE (0003ms, 1234ms total)
T2120 001:804 JLINK_IsHalted()  returns FALSE (0003ms, 1234ms total)
T2120 001:808 JLINK_IsHalted()  returns FALSE (0003ms, 1234ms total)
T2120 001:812 JLINK_IsHalted()  returns FALSE (0003ms, 1234ms total)
T2120 001:816 JLINK_IsHalted()  returns FALSE (0004ms, 1235ms total)
T2120 001:822 JLINK_IsHalted()  returns FALSE (0002ms, 1237ms total)
T2120 001:826 JLINK_IsHalted()  returns FALSE (0005ms, 1240ms total)
T2120 001:832 JLINK_IsHalted()  returns FALSE (0003ms, 1238ms total)
T2120 001:837 JLINK_IsHalted()  returns FALSE (0004ms, 1239ms total)
T2120 001:843 JLINK_IsHalted()  returns FALSE (0004ms, 1239ms total)
T2120 001:849 JLINK_IsHalted()  returns FALSE (0003ms, 1238ms total)
T2120 001:854 JLINK_IsHalted()  returns FALSE (0004ms, 1239ms total)
T2120 001:860 JLINK_IsHalted()  returns FALSE (0004ms, 1239ms total)
T2120 001:866 JLINK_IsHalted()  returns FALSE (0003ms, 1238ms total)
T2120 001:888 JLINK_IsHalted()  returns FALSE (0002ms, 1237ms total)
T2120 001:892 JLINK_IsHalted()  returns FALSE (0003ms, 1238ms total)
T2120 001:897 JLINK_IsHalted()  returns FALSE (0004ms, 1239ms total)
T2120 001:902 JLINK_IsHalted()  returns FALSE (0003ms, 1238ms total)
T2120 001:906 JLINK_IsHalted()  returns FALSE (0003ms, 1238ms total)
T2120 001:911 JLINK_IsHalted()  returns FALSE (0004ms, 1239ms total)
T2120 001:917 JLINK_IsHalted()  returns FALSE (0003ms, 1238ms total)
T2120 001:922 JLINK_IsHalted()  returns FALSE (0001ms, 1236ms total)
T2120 001:925 JLINK_IsHalted()  returns FALSE (0002ms, 1237ms total)
T2120 001:929 JLINK_IsHalted()  returns FALSE (0003ms, 1238ms total)
T2120 001:933 JLINK_IsHalted()  returns FALSE (0003ms, 1238ms total)
T2120 001:937 JLINK_IsHalted()  returns FALSE (0003ms, 1238ms total)
T2120 001:941 JLINK_IsHalted()  returns FALSE (0003ms, 1238ms total)
T2120 001:945 JLINK_IsHalted()  returns FALSE (0004ms, 1239ms total)
T2120 001:951 JLINK_IsHalted()  returns FALSE (0003ms, 1238ms total)
T2120 001:956 JLINK_IsHalted()  returns FALSE (0003ms, 1238ms total)
T2120 001:961 JLINK_IsHalted()  returns FALSE (0003ms, 1238ms total)
T2120 001:968 JLINK_IsHalted()  returns FALSE (0003ms, 1238ms total)
T2120 001:973 JLINK_IsHalted()  returns FALSE (0003ms, 1238ms total)
T2120 001:986 JLINK_IsHalted()  returns FALSE (0004ms, 1239ms total)
T2120 001:991 JLINK_IsHalted()  returns FALSE (0003ms, 1238ms total)
T2120 001:996 JLINK_IsHalted()  returns FALSE (0003ms, 1238ms total)
T2120 002:001 JLINK_IsHalted()  returns FALSE (0003ms, 1238ms total)
T2120 002:006 JLINK_IsHalted()  returns FALSE (0003ms, 1238ms total)
T2120 002:011 JLINK_IsHalted()  returns FALSE (0003ms, 1238ms total)
T2120 002:016 JLINK_IsHalted()  returns FALSE (0003ms, 1238ms total)
T2120 002:021 JLINK_IsHalted()  returns FALSE (0003ms, 1238ms total)
T2120 002:026 JLINK_IsHalted()  returns FALSE (0004ms, 1239ms total)
T2120 002:032 JLINK_IsHalted()  returns FALSE (0004ms, 1239ms total)
T2120 002:038 JLINK_IsHalted()  returns FALSE (0003ms, 1238ms total)
T2120 002:043 JLINK_IsHalted()  returns FALSE (0003ms, 1238ms total)
T2120 002:047 JLINK_IsHalted()  returns FALSE (0003ms, 1238ms total)
T2120 002:052 JLINK_IsHalted()  returns FALSE (0003ms, 1238ms total)
T2120 002:057 JLINK_IsHalted()  returns FALSE (0002ms, 1237ms total)
T2120 002:061 JLINK_IsHalted()  returns FALSE (0003ms, 1238ms total)
T2120 002:066 JLINK_IsHalted()  returns FALSE (0004ms, 1239ms total)
T2120 002:072 JLINK_IsHalted()  returns FALSE (0004ms, 1239ms total)
T2120 002:077 JLINK_IsHalted()  returns FALSE (0001ms, 1236ms total)
T2120 002:080 JLINK_IsHalted()  returns FALSE (0003ms, 1238ms total)
T2120 002:084 JLINK_IsHalted()  returns FALSE (0003ms, 1241ms total)
T2120 002:097 JLINK_IsHalted()  returns FALSE (0004ms, 1242ms total)
T2120 002:103 JLINK_IsHalted()  returns FALSE (0003ms, 1241ms total)
T2120 002:108 JLINK_IsHalted()  returns FALSE (0003ms, 1241ms total)
T2120 002:113 JLINK_IsHalted()  returns FALSE (0003ms, 1241ms total)
T2120 002:117 JLINK_IsHalted()  returns FALSE (0003ms, 1241ms total)
T2120 002:122 JLINK_IsHalted()  returns FALSE (0004ms, 1242ms total)
T2120 002:128 JLINK_IsHalted()  returns FALSE (0003ms, 1241ms total)
T2120 002:133 JLINK_IsHalted() -- CPU_ReadMem(2 bytes @ 0x20000000)  returns TRUE (0010ms, 1248ms total)
T2120 002:143 JLINK_ReadReg(R15 (PC))  returns 0x20000000 (0000ms, 1238ms total)
T2120 002:143 JLINK_ClrBPEx(BPHandle = 0x00000005)  returns 0x00 (0000ms, 1238ms total)
T2120 002:143 JLINK_ReadReg(R0)  returns 0x00000000 (0000ms, 1238ms total)
T2120 002:143 JLINK_WriteReg(R0, 0x00000001)  returns 0x00 (0000ms, 1238ms total)
T2120 002:143 JLINK_WriteReg(R1, 0x00004000)  returns 0x00 (0000ms, 1238ms total)
T2120 002:143 JLINK_WriteReg(R2, 0x000000FF)  returns 0x00 (0000ms, 1238ms total)
T2120 002:143 JLINK_WriteReg(R3, 0x00000000)  returns 0x00 (0001ms, 1239ms total)
T2120 002:144 JLINK_WriteReg(R4, 0x00000000)  returns 0x00 (0000ms, 1239ms total)
T2120 002:144 JLINK_WriteReg(R5, 0x00000000)  returns 0x00 (0000ms, 1239ms total)
T2120 002:144 JLINK_WriteReg(R6, 0x00000000)  returns 0x00 (0000ms, 1239ms total)
T2120 002:144 JLINK_WriteReg(R7, 0x00000000)  returns 0x00 (0000ms, 1239ms total)
T2120 002:144 JLINK_WriteReg(R8, 0x00000000)  returns 0x00 (0000ms, 1239ms total)
T2120 002:144 JLINK_WriteReg(R9, 0x2000017C)  returns 0x00 (0000ms, 1239ms total)
T2120 002:144 JLINK_WriteReg(R10, 0x00000000)  returns 0x00 (0000ms, 1239ms total)
T2120 002:144 JLINK_WriteReg(R11, 0x00000000)  returns 0x00 (0000ms, 1239ms total)
T2120 002:144 JLINK_WriteReg(R12, 0x00000000)  returns 0x00 (0000ms, 1239ms total)
T2120 002:144 JLINK_WriteReg(R13 (SP), 0x20001000)  returns 0x00 (0000ms, 1239ms total)
T2120 002:144 JLINK_WriteReg(R14, 0x20000001)  returns 0x00 (0000ms, 1239ms total)
T2120 002:144 JLINK_WriteReg(R15 (PC), 0x20000082)  returns 0x00 (0000ms, 1239ms total)
T2120 002:144 JLINK_WriteReg(XPSR, 0x01000000)  returns 0x00 (0000ms, 1239ms total)
T2120 002:144 JLINK_WriteReg(MSP, 0x20001000)  returns 0x00 (0000ms, 1239ms total)
T2120 002:144 JLINK_WriteReg(PSP, 0x20001000)  returns 0x00 (0000ms, 1239ms total)
T2120 002:144 JLINK_WriteReg(CFBP, 0x00000000)  returns 0x00 (0000ms, 1239ms total)
T2120 002:144 JLINK_SetBPEx(Addr = 0x20000000, Type = 0xFFFFFFF2)  returns 0x00000006 (0000ms, 1239ms total)
T2120 002:144 JLINK_Go() -- CPU_ReadMem(4 bytes @ 0xE0001000) (0010ms, 1249ms total)
T2120 002:154 JLINK_IsHalted() -- CPU_ReadMem(2 bytes @ 0x20000000)  returns TRUE (0013ms, 1262ms total)
T2120 002:167 JLINK_ReadReg(R15 (PC))  returns 0x20000000 (0000ms, 1249ms total)
T2120 002:167 JLINK_ClrBPEx(BPHandle = 0x00000006)  returns 0x00 (0000ms, 1249ms total)
T2120 002:167 JLINK_ReadReg(R0)  returns 0x00000000 (0000ms, 1249ms total)
T2120 002:224 JLINK_WriteMem(0x20000000, 0x0180 Bytes, ...) - Data: 00 BE 0A E0 0D 78 2D 06 68 40 08 24 40 00 00 D3 ... -- CPU_WriteMem(384 bytes @ 0x20000000)  returns 0x180 (0003ms, 1252ms total)
T2120 002:227 JLINK_WriteReg(R0, 0x08000000)  returns 0x00 (0000ms, 1252ms total)
T2120 002:227 JLINK_WriteReg(R1, 0x00B71B00)  returns 0x00 (0000ms, 1252ms total)
T2120 002:227 JLINK_WriteReg(R2, 0x00000002)  returns 0x00 (0000ms, 1252ms total)
T2120 002:227 JLINK_WriteReg(R3, 0x00000000)  returns 0x00 (0000ms, 1252ms total)
T2120 002:227 JLINK_WriteReg(R4, 0x00000000)  returns 0x00 (0000ms, 1252ms total)
T2120 002:227 JLINK_WriteReg(R5, 0x00000000)  returns 0x00 (0000ms, 1252ms total)
T2120 002:227 JLINK_WriteReg(R6, 0x00000000)  returns 0x00 (0000ms, 1252ms total)
T2120 002:227 JLINK_WriteReg(R7, 0x00000000)  returns 0x00 (0000ms, 1252ms total)
T2120 002:227 JLINK_WriteReg(R8, 0x00000000)  returns 0x00 (0000ms, 1252ms total)
T2120 002:227 JLINK_WriteReg(R9, 0x2000017C)  returns 0x00 (0000ms, 1252ms total)
T2120 002:227 JLINK_WriteReg(R10, 0x00000000)  returns 0x00 (0000ms, 1252ms total)
T2120 002:227 JLINK_WriteReg(R11, 0x00000000)  returns 0x00 (0000ms, 1252ms total)
T2120 002:227 JLINK_WriteReg(R12, 0x00000000)  returns 0x00 (0000ms, 1252ms total)
T2120 002:227 JLINK_WriteReg(R13 (SP), 0x20001000)  returns 0x00 (0000ms, 1252ms total)
T2120 002:227 JLINK_WriteReg(R14, 0x20000001)  returns 0x00 (0000ms, 1252ms total)
T2120 002:227 JLINK_WriteReg(R15 (PC), 0x20000054)  returns 0x00 (0000ms, 1252ms total)
T2120 002:227 JLINK_WriteReg(XPSR, 0x01000000)  returns 0x00 (0000ms, 1252ms total)
T2120 002:227 JLINK_WriteReg(MSP, 0x20001000)  returns 0x00 (0000ms, 1252ms total)
T2120 002:227 JLINK_WriteReg(PSP, 0x20001000)  returns 0x00 (0000ms, 1252ms total)
T2120 002:227 JLINK_WriteReg(CFBP, 0x00000000)  returns 0x00 (0000ms, 1252ms total)
T2120 002:227 JLINK_SetBPEx(Addr = 0x20000000, Type = 0xFFFFFFF2) -- CPU_ReadMem(2 bytes @ 0x20000000)  returns 0x00000007 (0003ms, 1255ms total)
T2120 002:230 JLINK_Go() -- CPU_WriteMem(2 bytes @ 0x20000000) -- CPU_ReadMem(4 bytes @ 0xE0001000) (0015ms, 1270ms total)
T2120 002:246 JLINK_IsHalted() -- CPU_ReadMem(2 bytes @ 0x20000000)  returns TRUE (0010ms, 1281ms total)
T2120 002:256 JLINK_ReadReg(R15 (PC))  returns 0x20000000 (0000ms, 1271ms total)
T2120 002:256 JLINK_ClrBPEx(BPHandle = 0x00000007)  returns 0x00 (0000ms, 1271ms total)
T2120 002:256 JLINK_ReadReg(R0)  returns 0x00000000 (0000ms, 1271ms total)
T2120 002:257 JLINK_WriteMem(0x20000180, 0x0400 Bytes, ...) - Data: E0 8D 00 20 89 02 00 08 1F 4A 00 08 6B 28 00 08 ... -- CPU_WriteMem(1024 bytes @ 0x20000180)  returns 0x400 (0005ms, 1276ms total)
T2120 002:262 JLINK_WriteReg(R0, 0x08000000)  returns 0x00 (0000ms, 1276ms total)
T2120 002:262 JLINK_WriteReg(R1, 0x00000400)  returns 0x00 (0000ms, 1276ms total)
T2120 002:262 JLINK_WriteReg(R2, 0x20000180)  returns 0x00 (0000ms, 1276ms total)
T2120 002:262 JLINK_WriteReg(R3, 0x00000000)  returns 0x00 (0000ms, 1276ms total)
T2120 002:262 JLINK_WriteReg(R4, 0x00000000)  returns 0x00 (0000ms, 1276ms total)
T2120 002:262 JLINK_WriteReg(R5, 0x00000000)  returns 0x00 (0000ms, 1276ms total)
T2120 002:262 JLINK_WriteReg(R6, 0x00000000)  returns 0x00 (0000ms, 1276ms total)
T2120 002:262 JLINK_WriteReg(R7, 0x00000000)  returns 0x00 (0000ms, 1276ms total)
T2120 002:262 JLINK_WriteReg(R8, 0x00000000)  returns 0x00 (0000ms, 1276ms total)
T2120 002:262 JLINK_WriteReg(R9, 0x2000017C)  returns 0x00 (0000ms, 1276ms total)
T2120 002:262 JLINK_WriteReg(R10, 0x00000000)  returns 0x00 (0000ms, 1276ms total)
T2120 002:262 JLINK_WriteReg(R11, 0x00000000)  returns 0x00 (0000ms, 1276ms total)
T2120 002:262 JLINK_WriteReg(R12, 0x00000000)  returns 0x00 (0000ms, 1276ms total)
T2120 002:262 JLINK_WriteReg(R13 (SP), 0x20001000)  returns 0x00 (0000ms, 1276ms total)
T2120 002:262 JLINK_WriteReg(R14, 0x20000001)  returns 0x00 (0000ms, 1276ms total)
T2120 002:262 JLINK_WriteReg(R15 (PC), 0x20000108)  returns 0x00 (0000ms, 1276ms total)
T2120 002:262 JLINK_WriteReg(XPSR, 0x01000000)  returns 0x00 (0000ms, 1276ms total)
T2120 002:262 JLINK_WriteReg(MSP, 0x20001000)  returns 0x00 (0000ms, 1276ms total)
T2120 002:262 JLINK_WriteReg(PSP, 0x20001000)  returns 0x00 (0000ms, 1276ms total)
T2120 002:262 JLINK_WriteReg(CFBP, 0x00000000)  returns 0x00 (0000ms, 1276ms total)
T2120 002:262 JLINK_SetBPEx(Addr = 0x20000000, Type = 0xFFFFFFF2)  returns 0x00000008 (0000ms, 1276ms total)
T2120 002:262 JLINK_Go() -- CPU_ReadMem(4 bytes @ 0xE0001000) (0009ms, 1285ms total)
T2120 002:271 JLINK_IsHalted()  returns FALSE (0001ms, 1286ms total)
T2120 002:286 JLINK_IsHalted() -- CPU_ReadMem(2 bytes @ 0x20000000)  returns TRUE (0010ms, 1295ms total)
T2120 002:296 JLINK_ReadReg(R15 (PC))  returns 0x20000000 (0000ms, 1285ms total)
T2120 002:296 JLINK_ClrBPEx(BPHandle = 0x00000008)  returns 0x00 (0000ms, 1285ms total)
T2120 002:296 JLINK_ReadReg(R0)  returns 0x00000000 (0000ms, 1285ms total)
T2120 002:296 JLINK_WriteMem(0x20000180, 0x0400 Bytes, ...) - Data: 10 EB 0A 00 41 EB 0B 01 BD E8 F0 4D 00 F0 4D B8 ... -- CPU_WriteMem(1024 bytes @ 0x20000180)  returns 0x400 (0006ms, 1291ms total)
T2120 002:302 JLINK_WriteReg(R0, 0x08000400)  returns 0x00 (0000ms, 1291ms total)
T2120 002:302 JLINK_WriteReg(R1, 0x00000400)  returns 0x00 (0000ms, 1291ms total)
T2120 002:302 JLINK_WriteReg(R2, 0x20000180)  returns 0x00 (0000ms, 1291ms total)
T2120 002:302 JLINK_WriteReg(R3, 0x00000000)  returns 0x00 (0000ms, 1291ms total)
T2120 002:302 JLINK_WriteReg(R4, 0x00000000)  returns 0x00 (0000ms, 1291ms total)
T2120 002:302 JLINK_WriteReg(R5, 0x00000000)  returns 0x00 (0000ms, 1291ms total)
T2120 002:302 JLINK_WriteReg(R6, 0x00000000)  returns 0x00 (0000ms, 1291ms total)
T2120 002:302 JLINK_WriteReg(R7, 0x00000000)  returns 0x00 (0000ms, 1291ms total)
T2120 002:302 JLINK_WriteReg(R8, 0x00000000)  returns 0x00 (0000ms, 1291ms total)
T2120 002:302 JLINK_WriteReg(R9, 0x2000017C)  returns 0x00 (0000ms, 1291ms total)
T2120 002:302 JLINK_WriteReg(R10, 0x00000000)  returns 0x00 (0000ms, 1291ms total)
T2120 002:302 JLINK_WriteReg(R11, 0x00000000)  returns 0x00 (0000ms, 1291ms total)
T2120 002:302 JLINK_WriteReg(R12, 0x00000000)  returns 0x00 (0000ms, 1291ms total)
T2120 002:302 JLINK_WriteReg(R13 (SP), 0x20001000)  returns 0x00 (0000ms, 1291ms total)
T2120 002:302 JLINK_WriteReg(R14, 0x20000001)  returns 0x00 (0000ms, 1291ms total)
T2120 002:302 JLINK_WriteReg(R15 (PC), 0x20000108)  returns 0x00 (0000ms, 1291ms total)
T2120 002:302 JLINK_WriteReg(XPSR, 0x01000000)  returns 0x00 (0000ms, 1291ms total)
T2120 002:302 JLINK_WriteReg(MSP, 0x20001000)  returns 0x00 (0000ms, 1291ms total)
T2120 002:302 JLINK_WriteReg(PSP, 0x20001000)  returns 0x00 (0000ms, 1291ms total)
T2120 002:302 JLINK_WriteReg(CFBP, 0x00000000)  returns 0x00 (0000ms, 1291ms total)
T2120 002:302 JLINK_SetBPEx(Addr = 0x20000000, Type = 0xFFFFFFF2)  returns 0x00000009 (0000ms, 1291ms total)
T2120 002:302 JLINK_Go() -- CPU_ReadMem(4 bytes @ 0xE0001000) (0008ms, 1299ms total)
T2120 002:310 JLINK_IsHalted()  returns FALSE (0004ms, 1303ms total)
T2120 002:324 JLINK_IsHalted() -- CPU_ReadMem(2 bytes @ 0x20000000)  returns TRUE (0010ms, 1309ms total)
T2120 002:334 JLINK_ReadReg(R15 (PC))  returns 0x20000000 (0000ms, 1299ms total)
T2120 002:334 JLINK_ClrBPEx(BPHandle = 0x00000009)  returns 0x00 (0000ms, 1299ms total)
T2120 002:334 JLINK_ReadReg(R0)  returns 0x00000000 (0000ms, 1299ms total)
T2120 002:335 JLINK_WriteMem(0x20000180, 0x0400 Bytes, ...) - Data: 02 F3 D0 40 C2 F1 20 02 91 40 08 43 19 46 70 47 ... -- CPU_WriteMem(1024 bytes @ 0x20000180)  returns 0x400 (0005ms, 1304ms total)
T2120 002:340 JLINK_WriteReg(R0, 0x08000800)  returns 0x00 (0000ms, 1304ms total)
T2120 002:340 JLINK_WriteReg(R1, 0x00000400)  returns 0x00 (0000ms, 1304ms total)
T2120 002:340 JLINK_WriteReg(R2, 0x20000180)  returns 0x00 (0000ms, 1304ms total)
T2120 002:340 JLINK_WriteReg(R3, 0x00000000)  returns 0x00 (0000ms, 1304ms total)
T2120 002:340 JLINK_WriteReg(R4, 0x00000000)  returns 0x00 (0001ms, 1305ms total)
T2120 002:341 JLINK_WriteReg(R5, 0x00000000)  returns 0x00 (0000ms, 1305ms total)
T2120 002:341 JLINK_WriteReg(R6, 0x00000000)  returns 0x00 (0000ms, 1305ms total)
T2120 002:341 JLINK_WriteReg(R7, 0x00000000)  returns 0x00 (0000ms, 1305ms total)
T2120 002:341 JLINK_WriteReg(R8, 0x00000000)  returns 0x00 (0000ms, 1305ms total)
T2120 002:341 JLINK_WriteReg(R9, 0x2000017C)  returns 0x00 (0000ms, 1305ms total)
T2120 002:341 JLINK_WriteReg(R10, 0x00000000)  returns 0x00 (0000ms, 1305ms total)
T2120 002:341 JLINK_WriteReg(R11, 0x00000000)  returns 0x00 (0000ms, 1305ms total)
T2120 002:341 JLINK_WriteReg(R12, 0x00000000)  returns 0x00 (0000ms, 1305ms total)
T2120 002:341 JLINK_WriteReg(R13 (SP), 0x20001000)  returns 0x00 (0000ms, 1305ms total)
T2120 002:341 JLINK_WriteReg(R14, 0x20000001)  returns 0x00 (0000ms, 1305ms total)
T2120 002:341 JLINK_WriteReg(R15 (PC), 0x20000108)  returns 0x00 (0000ms, 1305ms total)
T2120 002:341 JLINK_WriteReg(XPSR, 0x01000000)  returns 0x00 (0000ms, 1305ms total)
T2120 002:341 JLINK_WriteReg(MSP, 0x20001000)  returns 0x00 (0000ms, 1305ms total)
T2120 002:341 JLINK_WriteReg(PSP, 0x20001000)  returns 0x00 (0000ms, 1305ms total)
T2120 002:341 JLINK_WriteReg(CFBP, 0x00000000)  returns 0x00 (0000ms, 1305ms total)
T2120 002:341 JLINK_SetBPEx(Addr = 0x20000000, Type = 0xFFFFFFF2)  returns 0x0000000A (0000ms, 1305ms total)
T2120 002:341 JLINK_Go() -- CPU_ReadMem(4 bytes @ 0xE0001000) (0009ms, 1314ms total)
T2120 002:350 JLINK_IsHalted()  returns FALSE (0003ms, 1317ms total)
T2120 002:355 JLINK_IsHalted() -- CPU_ReadMem(2 bytes @ 0x20000000)  returns TRUE (0009ms, 1323ms total)
T2120 002:364 JLINK_ReadReg(R15 (PC))  returns 0x20000000 (0000ms, 1314ms total)
T2120 002:364 JLINK_ClrBPEx(BPHandle = 0x0000000A)  returns 0x00 (0000ms, 1314ms total)
T2120 002:364 JLINK_ReadReg(R0)  returns 0x00000000 (0000ms, 1314ms total)
T2120 002:365 JLINK_WriteMem(0x20000180, 0x0400 Bytes, ...) - Data: 1E 4A 05 21 00 90 1E A0 02 F0 62 FF 04 46 1C B1 ... -- CPU_WriteMem(1024 bytes @ 0x20000180)  returns 0x400 (0005ms, 1319ms total)
T2120 002:370 JLINK_WriteReg(R0, 0x08000C00)  returns 0x00 (0000ms, 1319ms total)
T2120 002:370 JLINK_WriteReg(R1, 0x00000400)  returns 0x00 (0000ms, 1319ms total)
T2120 002:370 JLINK_WriteReg(R2, 0x20000180)  returns 0x00 (0000ms, 1319ms total)
T2120 002:370 JLINK_WriteReg(R3, 0x00000000)  returns 0x00 (0000ms, 1319ms total)
T2120 002:370 JLINK_WriteReg(R4, 0x00000000)  returns 0x00 (0000ms, 1319ms total)
T2120 002:370 JLINK_WriteReg(R5, 0x00000000)  returns 0x00 (0000ms, 1319ms total)
T2120 002:370 JLINK_WriteReg(R6, 0x00000000)  returns 0x00 (0000ms, 1319ms total)
T2120 002:370 JLINK_WriteReg(R7, 0x00000000)  returns 0x00 (0000ms, 1319ms total)
T2120 002:370 JLINK_WriteReg(R8, 0x00000000)  returns 0x00 (0000ms, 1319ms total)
T2120 002:370 JLINK_WriteReg(R9, 0x2000017C)  returns 0x00 (0001ms, 1320ms total)
T2120 002:371 JLINK_WriteReg(R10, 0x00000000)  returns 0x00 (0000ms, 1320ms total)
T2120 002:371 JLINK_WriteReg(R11, 0x00000000)  returns 0x00 (0000ms, 1320ms total)
T2120 002:371 JLINK_WriteReg(R12, 0x00000000)  returns 0x00 (0000ms, 1320ms total)
T2120 002:371 JLINK_WriteReg(R13 (SP), 0x20001000)  returns 0x00 (0000ms, 1320ms total)
T2120 002:371 JLINK_WriteReg(R14, 0x20000001)  returns 0x00 (0000ms, 1320ms total)
T2120 002:371 JLINK_WriteReg(R15 (PC), 0x20000108)  returns 0x00 (0000ms, 1320ms total)
T2120 002:371 JLINK_WriteReg(XPSR, 0x01000000)  returns 0x00 (0000ms, 1320ms total)
T2120 002:371 JLINK_WriteReg(MSP, 0x20001000)  returns 0x00 (0000ms, 1320ms total)
T2120 002:371 JLINK_WriteReg(PSP, 0x20001000)  returns 0x00 (0000ms, 1320ms total)
T2120 002:371 JLINK_WriteReg(CFBP, 0x00000000)  returns 0x00 (0000ms, 1320ms total)
T2120 002:371 JLINK_SetBPEx(Addr = 0x20000000, Type = 0xFFFFFFF2)  returns 0x0000000B (0000ms, 1320ms total)
T2120 002:371 JLINK_Go() -- CPU_ReadMem(4 bytes @ 0xE0001000) (0009ms, 1329ms total)
T2120 002:380 JLINK_IsHalted()  returns FALSE (0003ms, 1332ms total)
T2120 002:388 JLINK_IsHalted() -- CPU_ReadMem(2 bytes @ 0x20000000)  returns TRUE (0012ms, 1341ms total)
T2120 002:400 JLINK_ReadReg(R15 (PC))  returns 0x20000000 (0000ms, 1329ms total)
T2120 002:400 JLINK_ClrBPEx(BPHandle = 0x0000000B)  returns 0x00 (0000ms, 1329ms total)
T2120 002:400 JLINK_ReadReg(R0)  returns 0x00000000 (0000ms, 1329ms total)
T2120 002:401 JLINK_WriteMem(0x20000180, 0x0400 Bytes, ...) - Data: 30 31 0A 00 10 B5 15 A0 03 F0 F4 FF 0A 21 22 48 ... -- CPU_WriteMem(1024 bytes @ 0x20000180)  returns 0x400 (0005ms, 1334ms total)
T2120 002:406 JLINK_WriteReg(R0, 0x08001000)  returns 0x00 (0000ms, 1334ms total)
T2120 002:406 JLINK_WriteReg(R1, 0x00000400)  returns 0x00 (0000ms, 1334ms total)
T2120 002:406 JLINK_WriteReg(R2, 0x20000180)  returns 0x00 (0000ms, 1334ms total)
T2120 002:406 JLINK_WriteReg(R3, 0x00000000)  returns 0x00 (0000ms, 1334ms total)
T2120 002:406 JLINK_WriteReg(R4, 0x00000000)  returns 0x00 (0000ms, 1334ms total)
T2120 002:406 JLINK_WriteReg(R5, 0x00000000)  returns 0x00 (0000ms, 1334ms total)
T2120 002:406 JLINK_WriteReg(R6, 0x00000000)  returns 0x00 (0000ms, 1334ms total)
T2120 002:406 JLINK_WriteReg(R7, 0x00000000)  returns 0x00 (0000ms, 1334ms total)
T2120 002:406 JLINK_WriteReg(R8, 0x00000000)  returns 0x00 (0000ms, 1334ms total)
T2120 002:406 JLINK_WriteReg(R9, 0x2000017C)  returns 0x00 (0000ms, 1334ms total)
T2120 002:406 JLINK_WriteReg(R10, 0x00000000)  returns 0x00 (0000ms, 1334ms total)
T2120 002:406 JLINK_WriteReg(R11, 0x00000000)  returns 0x00 (0000ms, 1334ms total)
T2120 002:406 JLINK_WriteReg(R12, 0x00000000)  returns 0x00 (0000ms, 1334ms total)
T2120 002:406 JLINK_WriteReg(R13 (SP), 0x20001000)  returns 0x00 (0000ms, 1334ms total)
T2120 002:406 JLINK_WriteReg(R14, 0x20000001)  returns 0x00 (0000ms, 1334ms total)
T2120 002:406 JLINK_WriteReg(R15 (PC), 0x20000108)  returns 0x00 (0000ms, 1334ms total)
T2120 002:406 JLINK_WriteReg(XPSR, 0x01000000)  returns 0x00 (0000ms, 1334ms total)
T2120 002:406 JLINK_WriteReg(MSP, 0x20001000)  returns 0x00 (0000ms, 1334ms total)
T2120 002:406 JLINK_WriteReg(PSP, 0x20001000)  returns 0x00 (0000ms, 1334ms total)
T2120 002:406 JLINK_WriteReg(CFBP, 0x00000000)  returns 0x00 (0000ms, 1334ms total)
T2120 002:406 JLINK_SetBPEx(Addr = 0x20000000, Type = 0xFFFFFFF2)  returns 0x0000000C (0000ms, 1334ms total)
T2120 002:406 JLINK_Go() -- CPU_ReadMem(4 bytes @ 0xE0001000) (0011ms, 1345ms total)
T2120 002:417 JLINK_IsHalted()  returns FALSE (0004ms, 1349ms total)
T2120 002:436 JLINK_IsHalted() -- CPU_ReadMem(2 bytes @ 0x20000000)  returns TRUE (0009ms, 1354ms total)
T2120 002:445 JLINK_ReadReg(R15 (PC))  returns 0x20000000 (0000ms, 1345ms total)
T2120 002:445 JLINK_ClrBPEx(BPHandle = 0x0000000C)  returns 0x00 (0000ms, 1345ms total)
T2120 002:445 JLINK_ReadReg(R0)  returns 0x00000000 (0000ms, 1345ms total)
T2120 002:446 JLINK_WriteMem(0x20000180, 0x0400 Bytes, ...) - Data: 45 78 61 6D 70 6C 65 5F 54 61 73 6B 45 6E 74 72 ... -- CPU_WriteMem(1024 bytes @ 0x20000180)  returns 0x400 (0006ms, 1351ms total)
T2120 002:452 JLINK_WriteReg(R0, 0x08001400)  returns 0x00 (0000ms, 1351ms total)
T2120 002:452 JLINK_WriteReg(R1, 0x00000400)  returns 0x00 (0000ms, 1351ms total)
T2120 002:452 JLINK_WriteReg(R2, 0x20000180)  returns 0x00 (0000ms, 1351ms total)
T2120 002:452 JLINK_WriteReg(R3, 0x00000000)  returns 0x00 (0000ms, 1351ms total)
T2120 002:452 JLINK_WriteReg(R4, 0x00000000)  returns 0x00 (0000ms, 1351ms total)
T2120 002:452 JLINK_WriteReg(R5, 0x00000000)  returns 0x00 (0000ms, 1351ms total)
T2120 002:452 JLINK_WriteReg(R6, 0x00000000)  returns 0x00 (0000ms, 1351ms total)
T2120 002:452 JLINK_WriteReg(R7, 0x00000000)  returns 0x00 (0000ms, 1351ms total)
T2120 002:452 JLINK_WriteReg(R8, 0x00000000)  returns 0x00 (0000ms, 1351ms total)
T2120 002:452 JLINK_WriteReg(R9, 0x2000017C)  returns 0x00 (0000ms, 1351ms total)
T2120 002:452 JLINK_WriteReg(R10, 0x00000000)  returns 0x00 (0000ms, 1351ms total)
T2120 002:452 JLINK_WriteReg(R11, 0x00000000)  returns 0x00 (0000ms, 1351ms total)
T2120 002:452 JLINK_WriteReg(R12, 0x00000000)  returns 0x00 (0000ms, 1351ms total)
T2120 002:452 JLINK_WriteReg(R13 (SP), 0x20001000)  returns 0x00 (0000ms, 1351ms total)
T2120 002:452 JLINK_WriteReg(R14, 0x20000001)  returns 0x00 (0000ms, 1351ms total)
T2120 002:452 JLINK_WriteReg(R15 (PC), 0x20000108)  returns 0x00 (0000ms, 1351ms total)
T2120 002:452 JLINK_WriteReg(XPSR, 0x01000000)  returns 0x00 (0000ms, 1351ms total)
T2120 002:452 JLINK_WriteReg(MSP, 0x20001000)  returns 0x00 (0000ms, 1351ms total)
T2120 002:452 JLINK_WriteReg(PSP, 0x20001000)  returns 0x00 (0000ms, 1351ms total)
T2120 002:452 JLINK_WriteReg(CFBP, 0x00000000)  returns 0x00 (0000ms, 1351ms total)
T2120 002:452 JLINK_SetBPEx(Addr = 0x20000000, Type = 0xFFFFFFF2)  returns 0x0000000D (0000ms, 1351ms total)
T2120 002:452 JLINK_Go() -- CPU_ReadMem(4 bytes @ 0xE0001000) (0011ms, 1362ms total)
T2120 002:463 JLINK_IsHalted()  returns FALSE (0003ms, 1365ms total)
T2120 002:471 JLINK_IsHalted() -- CPU_ReadMem(2 bytes @ 0x20000000)  returns TRUE (0008ms, 1370ms total)
T2120 002:479 JLINK_ReadReg(R15 (PC))  returns 0x20000000 (0000ms, 1362ms total)
T2120 002:479 JLINK_ClrBPEx(BPHandle = 0x0000000D)  returns 0x00 (0000ms, 1362ms total)
T2120 002:479 JLINK_ReadReg(R0)  returns 0x00000000 (0000ms, 1362ms total)
T2120 002:480 JLINK_WriteMem(0x20000180, 0x0400 Bytes, ...) - Data: 80 20 09 90 01 A9 2E 48 02 F0 A6 FD 04 46 74 B1 ... -- CPU_WriteMem(1024 bytes @ 0x20000180)  returns 0x400 (0005ms, 1367ms total)
T2120 002:485 JLINK_WriteReg(R0, 0x08001800)  returns 0x00 (0000ms, 1367ms total)
T2120 002:485 JLINK_WriteReg(R1, 0x00000400)  returns 0x00 (0000ms, 1367ms total)
T2120 002:485 JLINK_WriteReg(R2, 0x20000180)  returns 0x00 (0000ms, 1367ms total)
T2120 002:485 JLINK_WriteReg(R3, 0x00000000)  returns 0x00 (0000ms, 1367ms total)
T2120 002:485 JLINK_WriteReg(R4, 0x00000000)  returns 0x00 (0000ms, 1367ms total)
T2120 002:485 JLINK_WriteReg(R5, 0x00000000)  returns 0x00 (0000ms, 1367ms total)
T2120 002:485 JLINK_WriteReg(R6, 0x00000000)  returns 0x00 (0000ms, 1367ms total)
T2120 002:485 JLINK_WriteReg(R7, 0x00000000)  returns 0x00 (0000ms, 1367ms total)
T2120 002:485 JLINK_WriteReg(R8, 0x00000000)  returns 0x00 (0000ms, 1367ms total)
T2120 002:485 JLINK_WriteReg(R9, 0x2000017C)  returns 0x00 (0000ms, 1367ms total)
T2120 002:485 JLINK_WriteReg(R10, 0x00000000)  returns 0x00 (0000ms, 1367ms total)
T2120 002:485 JLINK_WriteReg(R11, 0x00000000)  returns 0x00 (0000ms, 1367ms total)
T2120 002:485 JLINK_WriteReg(R12, 0x00000000)  returns 0x00 (0000ms, 1367ms total)
T2120 002:485 JLINK_WriteReg(R13 (SP), 0x20001000)  returns 0x00 (0000ms, 1367ms total)
T2120 002:485 JLINK_WriteReg(R14, 0x20000001)  returns 0x00 (0000ms, 1367ms total)
T2120 002:485 JLINK_WriteReg(R15 (PC), 0x20000108)  returns 0x00 (0000ms, 1367ms total)
T2120 002:485 JLINK_WriteReg(XPSR, 0x01000000)  returns 0x00 (0001ms, 1368ms total)
T2120 002:486 JLINK_WriteReg(MSP, 0x20001000)  returns 0x00 (0000ms, 1368ms total)
T2120 002:486 JLINK_WriteReg(PSP, 0x20001000)  returns 0x00 (0000ms, 1368ms total)
T2120 002:486 JLINK_WriteReg(CFBP, 0x00000000)  returns 0x00 (0000ms, 1368ms total)
T2120 002:486 JLINK_SetBPEx(Addr = 0x20000000, Type = 0xFFFFFFF2)  returns 0x0000000E (0000ms, 1368ms total)
